Circuit: * C:\Users\aryam\Desktop\Fall Sem 2021\Electronics Hardware Trouble Shooting Lab\Lab 5 6-9-21\Draft1.asc

Error on line 2 : v1 vin 0 v
	 Unknown parameter "v"
V1: Missing value, assumed 0V @ DC
Direct Newton iteration for .op point succeeded.
Semiconductor Device Operating Points:
                        --- Bipolar Transistors ---
Name:       q1
Model:    bc547b
Ib:       2.33e-06
Ic:       7.26e-04
Vbe:      6.28e-01
Vbc:     -6.38e+00
Vce:      7.01e+00
BetaDC:   3.12e+02
Gm:       2.77e-02
Rpi:      1.12e+04
Rx:       1.00e+00
Ro:       9.37e+04
Cbe:      5.28e-11
Cbc:      1.00e-12
Cjs:      0.00e+00
BetaAC:   3.11e+02
Cbx:      6.15e-13
Ft:       8.10e+07



Date: Tue Sep 21 16:02:43 2021
Total elapsed time: 0.046 seconds.

tnom = 27
temp = 27
method = trap
totiter = 7
traniter = 0
tranpoints = 0
accept = 0
rejected = 0
matrix size = 11
fillins = 0
solver = Normal
Matrix Compiler1: 574 bytes object code size
Matrix Compiler2: 847 bytes object code size
